#Digilent WaveForms Impedance Analyzer
#Device Name: DY_Discovery1
#Serial Number: SN:210244704387
#Date Time: 
#Digilent WaveForms Impedance Analyzer Trace#Trace: Trace
#Start: 100 Hz
#Stop: 5e+06 Hz
#Steps: 101
#Resistor: 1000 ¦¸
#Average: 1
#ProbeResistance: 1.041e+06 ¦¸
#ProbeCapacitance: 4.5e-11 F
#Compensation:none
#Wavegen: Wavegen1
#Amplitude: 0.1 V
#Offset: 0 V
#Amplification: 1 X
#Settle: 0.01 s
#MinPeriods: 16
#Scale: Logarithmic
#ScopeC
#SChannel: 1 
#Range: 5.48591 V
#Offset: -0.000257542 V
#Attenuation: 1 X
#ScopeC
#SChannel: 2 
#Range: 5.5047 V
#Offset: -0.000259064 V
#Attenuation: 1 X

Frequency (Hz)	Trace < (deg)	Trace th (deg)	Trace Vin (V)	Trace Vout (V)	Trace Vout/Vin (V)
100	-178.2990980148644	-178.3015742361681	0.09568894899707114	2.205296679221925	23.04651375457604
111.4268106709143	-178.4690163706404	-178.4717755450638	0.09679221091897475	2.227210601238589	23.01022551394139
124.1593413629177	-178.6402252016306	-178.6432996616908	0.09769072316960538	2.245435253673725	22.98514312126978
138.3467942307124	-178.7826873780602	-178.7861131508499	0.09841765609523803	2.260134790090153	22.96472888871726
154.1554204767356	-178.9379533585642	-178.9417705879235	0.09907542992379657	2.272479845416043	22.93686585224925
171.7704685135639	-179.0578717430645	-179.062125159994	0.09958848297141536	2.283122231661249	22.92556492015817
191.3983547391513	-179.1493481652971	-179.154087612124	0.09998752099304439	2.291779671673807	22.92065698711777
213.269082362439	-179.2481550111713	-179.2534360256112	0.1003203028369807	2.29870758740415	22.91368269830208
237.6389366235905	-179.319833528026	-179.3257179939835	0.1006231668578135	2.304424660301024	22.90153184661055
264.7934879919427	-179.4073632335218	-179.4139201062576	0.1008584325800353	2.309512224239808	22.89855359795639
295.050938533692	-179.4561646357534	-179.463470749915	0.1010222598232434	2.313310776934875	22.89902028505823
328.7658506626926	-179.5182734241623	-179.5264143941458	0.1012232279310869	2.317194624435924	22.89192581384064
366.3333019685392	-179.5826312594828	-179.5917024826783	0.1013066834455882	2.319366975672367	22.89451097190542
408.1935148089927	-179.6065173170739	-179.6166250917491	0.1014124346351912	2.321494392418783	22.89161482780534
454.8370149171666	-179.6407554914132	-179.6520182623353	0.1014834416282928	2.323054778809886	22.89097355722942
506.8103794729898	-179.6876702901922	-179.7002200365848	0.1015736209246553	2.324765008392375	22.88748778697991
564.7226419959104	-179.7004801189954	-179.7144639010941	0.1016145044058808	2.325643976949513	22.88692928777321
629.2524291125679	-179.7161550567679	-179.7317367390968	0.1016350314545011	2.327089105792391	22.89652566137255
701.1559128293893	-179.7108452212722	-179.7282073928367	0.1017500692151376	2.328152762343684	22.88109266462612
781.2756714963242	-179.7479432102394	-179.7672893241339	0.1017048524496601	2.327855834002276	22.88834581569717
870.550563296124	-179.7420488682394	-179.7636056257429	0.1017452415808631	2.32899747013084	22.89048051726178
970.0267279585497	-179.7452197374448	-179.7692397445413	0.1017151774456232	2.329034064839295	22.89760607343377
1080.869845619638	-179.748819149788	-179.7755838772397	0.1017651116744981	2.329529882148028	22.8912428219916
1204.378796477597	-179.7469388756259	-179.776761957286	0.1017769978505258	2.329777529777559	22.89100267232457
1342.000881311729	-179.7378222304986	-179.7710531385112	0.1018562090350658	2.332133076141615	22.89632706965108
1495.348781221221	-179.7282980449602	-179.7653261849125	0.1017992013682184	2.330504211960754	22.89314828248088
1666.219455321193	-179.7034012569623	-179.7446605309743	0.1018431585525493	2.331799954956679	22.89599014894565
1856.615197842686	-179.6593280539846	-179.7053019452022	0.1018210983682612	2.331016902057308	22.89326023204551
2068.767101387591	-179.6691991873802	-179.7204264254492	0.1018757319757903	2.332005441152102	22.89068648563212
2305.161201285311	-179.6395441894217	-179.6966250633222	0.101823309555309	2.332462681255854	22.90696198583971
2568.567607415556	-179.5847646169484	-179.6483680091551	0.1018528749102557	2.332876947479583	22.90437996507334
2862.072964869367	-179.5534506033608	-179.6243218277421	0.1018170584025255	2.331810067821112	22.90195871307233
3189.116623828411	-179.49489394231	-179.5738634775914	0.1018358875959667	2.33256036589145	22.90509191755533
3553.530942507937	-179.4420157841043	-179.5300090052088	0.1019560960561197	2.334702633449867	22.89909798198605
3959.586195440673	-179.3932369175085	-179.4912849387686	0.1019134720241332	2.33307416231863	22.892696284218
4412.040613345332	-179.3001528583311	-179.4094046155825	0.101869827982342	2.33367547149414	22.90840691218854
4916.196140956152	-179.2601781298948	-179.3819138429574	0.1018869367793244	2.334006268400138	22.90780685118969
5477.960566194004	-179.1464637499477	-179.2821099231479	0.1020109272829582	2.336675055371567	22.90612503590023
6103.916748720334	-179.0745000794632	-179.2256462158343	0.1020491815642999	2.338009061521279	22.91061060639793
6801.399759106832	-178.9577286524303	-179.126145877257	0.1020607285258588	2.337087064414225	22.8989847336048
7578.582832551996	-178.8281434077567	-179.0158052194246	0.1021280247613962	2.338514291635532	22.89787056098512
8444.573144366113	-178.7032936480966	-178.9123990390369	0.1021252701306047	2.338672178778754	22.90003420101512
9409.5185295397	-178.5525549989332	-178.7855542170784	0.1021028542824884	2.338685174923552	22.90518900140737
10484.7263969548	-178.4016810514735	-178.6613043033853	0.1022438964857788	2.341235194400847	22.89853257623541
11682.79623169819	-178.2055983783512	-178.4948878093774	0.1022623544690426	2.34137853344171	22.8958011537912
13017.76723816306	-178.0111962974443	-178.3335416222824	0.102273099240385	2.341248680711868	22.89212606346214
14505.28285404826	-177.7802213280744	-178.1393995273686	0.1023177528816138	2.341578356665218	22.88535753296427
16162.77406306094	-177.5455478116498	-177.9457673571696	0.1023017563474562	2.342029280222114	22.89334380797609
18009.66365441455	-177.2914923028355	-177.7374424258407	0.1023924115097317	2.343440119193921	22.88685347518349
20067.59382267297	-176.9178660298022	-177.4147716049079	0.1025355858116036	2.344919201908938	22.86932076652328
22360.6797749979	-176.596793720644	-177.1504764013735	0.1024158674465554	2.342077286668869	22.8683049322514
24915.79231761632	-176.1663098723818	-176.7832561851927	0.1025074657311234	2.344152624858864	22.86811607466295
27762.87273290857	-175.8076324760529	-176.4950696574776	0.1025172391027209	2.342446405613321	22.84929272496523
30935.2836369049	-175.3725191591747	-176.1384996063585	0.1025234362041419	2.341245045205931	22.83619367326031
34470.19992860434	-174.7998627389174	-175.6533580377259	0.1024425769655305	2.339299201076474	22.83522408718392
38409.04441233158	-174.2365651209713	-175.1875707183323	0.1026523381262893	2.339537854170588	22.7908871524421
42797.97319783613	-173.5600143018461	-174.6196660002582	0.1027550243523764	2.33866815033971	22.7596476676386
47688.41656614144	-172.810375235784	-173.9910788078512	0.1026537338566294	2.332166236115706	22.71876675594585
53137.68163911133	-172.0414452319232	-173.3570205808005	0.1026824407461285	2.328911450772762	22.68071769476877
59209.62391492575	-171.1280273125869	-172.5938687391557	0.1028716543696847	2.326167345018535	22.61232561361466
65975.39553864471	-170.1582274408806	-171.7914817181555	0.1029114301711057	2.324522501983824	22.58760273877213
73514.27907623244	-169.0647187738567	-170.8844828700811	0.1030334504067941	2.314465373715852	22.46324241863141
81914.6165623611	-167.8465303988758	-169.8740708275975	0.1030528463426897	2.305107687325198	22.3682097984935
91274.84470874748	-166.5392106237543	-168.7982065238096	0.1030197458169721	2.294932735217299	22.27662975692586
101704.6484037871	-165.1002556732254	-167.6170678222302	0.1028625099776387	2.275694592007724	22.12365411365558
113326.2460204069	-163.4779230047411	-166.2818910294684	0.1031264526000328	2.262279266118909	21.93694448981939
126275.8215936133	-161.7138311776806	-164.8376012196581	0.1032411043140885	2.241299825589923	21.70937477355199
140705.120650257	-159.7873043447697	-163.2671893360659	0.1030836359574683	2.212604441081349	21.46416762010857
156783.2283912434	-157.6233148474616	-161.4996893036187	0.1030489940287419	2.183607847699348	21.18999674164997
174698.5510632577	-155.462145921256	-159.7798767022424	0.1030053035108521	2.145575459165186	20.82975716817474
194661.0237380866	-153.019896949655	-157.8288106897323	0.1030315609561819	2.09880171840046	20.37047385211465
216904.5703707013	-150.4532981503085	-155.8086848991224	0.1029214924363129	2.045921232806214	19.87846449148817
241689.8449635213	-147.7678820589267	-153.7310329579637	0.1028334489815039	1.984724299146699	19.30037666541439
269307.2859583292	-145.0242036833662	-151.6629780291039	0.102793930579684	1.916693818706706	18.64598238337544
300080.5196477651	-141.9067759255218	-149.2961894972412	0.1026103668854365	1.842868962600007	17.95987109818595
334370.1524882111	-139.0182049124156	-147.2410266689553	0.1023634597849591	1.758728493228763	17.18121385232022
372577.9967530864	-135.9204083179107	-145.0677461455246	0.1022736269273691	1.673097818354321	16.35903476408921
415151.7790435466	-132.9670137760366	-143.138861524847	0.1020784721996274	1.578717469866598	15.46572392638495
462590.3868317851	-129.9300956837927	-141.2358029145785	0.1022025175260164	1.484428439610185	14.52438232974361
515449.7145169031	-126.993660104322	-139.552272556576	0.1020325559707189	1.38465079758255	13.57067638274116
574349.1774985178	-124.1844684556932	-138.1248713117423	0.1019107432251618	1.287365932489295	12.63228872391781
639978.9706012268	-121.3990580020377	-136.8598361869827	0.1018447181857887	1.190718878104568	11.69151330884354
713108.1559054942	-118.8703545260583	-135.9992661019796	0.1018169231786227	1.096651460633836	10.77081713331607
794593.6747596633	-116.4289764325273	-135.3819195507913	0.1019227380838391	1.007212781054817	9.882120515898121
885390.3895775104	-114.1544553861919	-135.0938010095528	0.1018043932735583	0.9197960497858397	9.034934743083815
986562.273093003	-112.0854596378139	-135.1776281217812	0.1018422134715431	0.8392907708773254	8.241089252364306
1099294.876190009	-110.1745673204515	-135.5867553604523	0.1019255331620674	0.7637557969723084	7.493272522380561
1224909.220407302	-108.4197704475395	-136.315794345266	0.1022427521534789	0.6937839286305461	6.785653887613389
1364877.277913817	-106.8456825291382	-137.3809996735157	0.1023644146123162	0.628693502768885	6.14171931867075
1520839.220351358	-105.461264570056	-138.7773653262486	0.1025699500677499	0.5690759051443975	5.548173756236691
1694622.638669916	-104.1731161934565	-140.3916284768698	0.1028207535072893	0.5142518168345538	5.001439877583635
1888263.959177179	-103.0999983136505	-142.3169876178216	0.1033067306175184	0.4649202545578536	4.500386874880097
2104032.306759465	-102.0941576676655	-144.3751955884661	0.1037697558097	0.4201621549174641	4.04898471273254
2344456.09490774	-101.3276798833072	-146.7042538978872	0.1043356940919472	0.3792679969108425	3.635074268798248
2612352.654135555	-100.6564436169164	-149.1241671662959	0.1051142982869921	0.3429401031894315	3.26254476106673
2910861.245980229	-100.0819049238597	-151.6007693551741	0.1061774482095022	0.3097476046071235	2.917263598160226
3243479.849451406	-99.62378580390283	-154.1204196708109	0.10754814687307	0.2801180188041781	2.604582477230201
3614106.150997474	-99.40603773772267	-156.7776714206079	0.1090995742160155	0.253084122486676	2.319753530711067
4027083.218317823	-99.38555094376187	-159.505189368902	0.1111974916953196	0.2290875754567759	2.060186538060358
4487250.393235162	-99.66245125780038	-162.3846718696715	0.1138595560130706	0.2072697448426277	1.820398323166076
5000000	-100.4045689342515	-165.571386867478	0.1171985268144032	0.1871674098089391	1.597011625456175
